
**** 10/02/23 13:30:09 ******* PSpice Lite (March 2016) ******* ID# 10813 ****

 ** Profile: "SCHEMATIC1-Task2"  [ C:\Users\KimHyeongJun\Documents\GitHub\2023-2-Engineering-design\PSPICE\First\231001_ex2-PSpiceFil


 ****     CIRCUIT DESCRIPTION


******************************************************************************




** Creating circuit file "Task2.cir" 
** WARNING: THIS AUTOMATICALLY GENERATED FILE MAY BE OVERWRITTEN BY SUBSEQUENT SIMULATIONS

*Libraries: 
* Profile Libraries :
* Local Libraries :
* From [PSPICE NETLIST] section of C:\Users\KimHyeongJun\AppData\Roaming\SPB_Data\cdssetup\OrCAD_PSpice\17.2.0\PSpice.ini file:
.lib "nomd.lib" 

*Analysis directives: 
.AC DEC 20 100Hz 100MegHz
.OPTIONS ADVCONV
.PROBE64 V(alias(*)) I(alias(*)) W(alias(*)) D(alias(*)) NOISE(alias(*)) 
.INC "..\SCHEMATIC1.net" 



**** INCLUDING SCHEMATIC1.net ****
* source 231001_EX2
C_C1         N01190 N01090  10uF  TC=0,0 
Q_Q1         VOUT1 N01090 N01206 Q2N3904
R_R4         VOUT1 N01032  6.5k TC=0,0 
V_V2         N01182 0 DC 0Vdc AC 1Vac 
C_C_E         0 N01206  10uF  TC=0,0 
R_R1         N01090 N01032  180k TC=0,0 
R_R3         N01190 N01182  1k TC=0,0 
V_V1         N01032 0 12Vdc
R_R2         0 N01090  40k TC=0,0 
R_R5         0 N01206  1.5k TC=0,0 
R_R8         N01978 N01970  1k TC=0,0 
V_V4         N01970 0 DC 0Vdc AC 1Vac 
R_R9         0 N01906  83k TC=0,0 
C_C2         N01978 N01906  10uF  TC=0,0 
R_R10         0 N01994  1.5k TC=0,0 
Q_Q2         N01910 N01906 N01994 Q2N3904
C_C_E1         0 N01994  10uF  TC=0,0 
C_C3         0 N02499  10uF  TC=0,0 
R_R12         VOUT2 N02447  5k TC=0,0 
Q_Q3         VOUT2 N02499 N01910 Q2N3904
R_R11         N02499 N02447  180k TC=0,0 
V_V5         N02447 0 12Vdc
R_R13         N01906 N02499  40k TC=0,0 

**** RESUMING Task2.cir ****
.END

**** 10/02/23 13:30:09 ******* PSpice Lite (March 2016) ******* ID# 10813 ****

 ** Profile: "SCHEMATIC1-Task2"  [ C:\Users\KimHyeongJun\Documents\GitHub\2023-2-Engineering-design\PSPICE\First\231001_ex2-PSpiceFil


 ****     BJT MODEL PARAMETERS


******************************************************************************




               Q2N3904         
               NPN             
       LEVEL    1            
          IS    6.734000E-15 
          BF  416.4          
          NF    1            
         VAF   74.03         
         IKF     .06678      
         ISE    6.734000E-15 
          NE    1.259        
          BR     .7371       
          NR    1            
         ISS    0            
          RB   10            
          RE    0            
          RC    1            
         CJE    4.493000E-12 
         VJE     .75         
         MJE     .2593       
         CJC    3.638000E-12 
         VJC     .75         
         MJC     .3085       
        XCJC    1            
         CJS    0            
         VJS     .75         
          TF  301.200000E-12 
         XTF    2            
         VTF    4            
         ITF     .4          
          TR  239.500000E-09 
         XTB    1.5          
          KF    0            
          AF    1            
          CN    2.42         
           D     .87         


**** 10/02/23 13:30:09 ******* PSpice Lite (March 2016) ******* ID# 10813 ****

 ** Profile: "SCHEMATIC1-Task2"  [ C:\Users\KimHyeongJun\Documents\GitHub\2023-2-Engineering-design\PSPICE\First\231001_ex2-PSpiceFil


 ****     SMALL SIGNAL BIAS SOLUTION       TEMPERATURE =   27.000 DEG C


******************************************************************************



 NODE   VOLTAGE     NODE   VOLTAGE     NODE   VOLTAGE     NODE   VOLTAGE


(VOUT1)    6.3484  (VOUT2)    6.3637  (N01032)   12.0000 (N01090)    1.9743     

(N01182)    0.0000 (N01190)    0.0000 (N01206)    1.3137 (N01906)    2.3844     

(N01910)    3.1988 (N01970)    0.0000 (N01978)    0.0000 (N01994)    1.7156     

(N02447)   12.0000 (N02499)    3.8669 




    VOLTAGE SOURCE CURRENTS
    NAME         CURRENT

    V_V2         0.000E+00
    V_V1        -9.252E-04
    V_V4         0.000E+00
    V_V5        -1.172E-03

    TOTAL POWER DISSIPATION   2.52E-02  WATTS



          JOB CONCLUDED

**** 10/02/23 13:30:09 ******* PSpice Lite (March 2016) ******* ID# 10813 ****

 ** Profile: "SCHEMATIC1-Task2"  [ C:\Users\KimHyeongJun\Documents\GitHub\2023-2-Engineering-design\PSPICE\First\231001_ex2-PSpiceFil


 ****     JOB STATISTICS SUMMARY


******************************************************************************



  Total job time (using Solver 1)   =         .06
